<Qucs Dataset 0.0.15>
<indep x 10>
  +5.00000000000e+00
  +1.00000000000e+01
  +1.50000000000e+01
  +2.00000000000e+01
  +2.50000000000e+01
  +3.00000000000e+01
  +3.50000000000e+01
  +4.00000000000e+01
  +4.50000000000e+01
  +5.00000000000e+01
</indep>
<dep V1.I x>
  -3.18181818182e+00
  -2.18750000000e+00
  -1.66666666667e+00
  -1.34615384615e+00
  -1.12903225806e+00
  -9.72222222222e-01
  -8.53658536585e-01
  -7.60869565217e-01
  -6.86274509804e-01
  -6.25000000000e-01
</dep>
<dep izeja.V x>
  +1.59090909091e+01
  +2.18750000000e+01
  +2.50000000000e+01
  +2.69230769231e+01
  +2.82258064516e+01
  +2.91666666667e+01
  +2.98780487805e+01
  +3.04347826087e+01
  +3.08823529412e+01
  +3.12500000000e+01
</dep>
<dep _net0.V x>
  +3.50000000000e+01
  +3.50000000000e+01
  +3.50000000000e+01
  +3.50000000000e+01
  +3.50000000000e+01
  +3.50000000000e+01
  +3.50000000000e+01
  +3.50000000000e+01
  +3.50000000000e+01
  +3.50000000000e+01
</dep>
